
T1498 001:567 SEGGER J-Link V4.41b (beta) Log File (0001ms, 0424ms total)
T1498 001:567 DLL Compiled: Dec 21 2011 19:07:35 (0001ms, 0424ms total)
T1498 001:567 Logging started @ 2017-06-14 13:23 (0001ms, 0424ms total)
T1498 001:568 JLINK_SetWarnOutHandler(...) (0000ms, 0425ms total)
T1498 001:568 JLINK_OpenEx(...)
Firmware: J-Link ARM V8 compiled Dec  6 2011 18:57:44
Hardware: V8.00
S/N: 20100214
Feature(s): RDI,FlashDL,FlashBP,JFlash,GDBFull  returns O.K. (0156ms, 0425ms total)
T1498 001:724 JLINK_SetErrorOutHandler(...) (0000ms, 0581ms total)
T1498 001:724 JLINK_ExecCommand("ProjectFile = "E:\ÐÅºÅ»úµ¥°å²âÊÔ\µ¥°å²âÊÔ\³ÌÐò\DET\PRO\JLinkSettings.ini"", ...)  returns 0x00 (0000ms, 0581ms total)
T1498 001:726 JLINK_ExecCommand("Device = STM32F103VC", ...)
                JLINK_ExecCommand("map ram 0x20000000 - 0x2000BFFF", ...)  returns 0x00 (0000ms, 0000ms total)
                JLINK_AddMirrorAreaEx(Addr = 0x00000000, Size = 0x00000000) (0000ms, 0000ms total)
              Device "STM32F103VC" selected (256 KB flash, 48 KB RAM).  returns 0x00 (0003ms, 0581ms total)
T1498 001:731 JLINK_ExecCommand("DisableConnectionTimeout", ...)  returns 0x00 (0000ms, 0584ms total)
T1498 001:734 JLINK_GetHardwareVersion()  returns 0x13880 (0000ms, 0584ms total)
T1498 001:734 JLINK_GetDLLVersion()  returns 44102 (0000ms, 0584ms total)
T1498 001:734 JLINK_GetFirmwareString(...) (0000ms, 0584ms total)
T1498 001:739 JLINK_GetDLLVersion()  returns 44102 (0000ms, 0584ms total)
T1498 001:739 JLINK_GetCompileDateTime() (0000ms, 0584ms total)
T1498 001:741 JLINK_GetFirmwareString(...) (0000ms, 0584ms total)
T1498 001:742 JLINK_GetHardwareVersion()  returns 0x13880 (0001ms, 0584ms total)
T1498 001:747 JLINK_TIF_Select(JLINKARM_TIF_JTAG)  returns 0x00 (0000ms, 0585ms total)
T1498 001:747 JLINK_SetSpeed(5000) (0000ms, 0585ms total)
T1498 001:747 JLINK_GetIdData(...) >0x2F8 JTAG>TotalIRLen = 9, IRPrint = 0x0011 >0x30 JTAG> >0x210 JTAG> >0x80 JTAG> >0x40 JTAG> >0x40 JTAG> >0x50 JTAG> >0x40 JTAG> >0x40 JTAG> >0x40 JTAG> >0x50 JTAG> >0x40 JTAG> >0x50 JTAG> >0x40 JTAG> >0x40 JTAG> >0x40 JTAG> >0x30 JTAG> >0x40 JTAG> >0x50 JTAG> >0x40 JTAG> >0x38 JTAG> >0x80 JTAG> >0x40 JTAG> >0x40 JTAG> >0x50 JTAG> >0x40 JTAG> >0x40 JTAG> >0x40 JTAG> >0x50 JTAG> >0x40 JTAG> >0x40 JTAG> >0x30 JTAG> >0x40 JTAG> >0x40 JTAG> >0x40 JTAG> >0x40 JTAG>
 >0x40 JTAG> >0x50 JTAG> >0x40 JTAG> >0x80 JTAG> >0x40 JTAG> >0x30 JTAG> >0x40 JTAG> >0x40 JTAG> >0x40 JTAG> >0x40 JTAG> >0x40 JTAG> >0x50 JTAG> >0x40 JTAG> >0x80 JTAG> >0x40 JTAG> >0x30 JTAG> >0x40 JTAG> >0x50 JTAG> >0x40 JTAG> >0x40 JTAG> >0x40 JTAG> >0x30 JTAG> >0x40 JTAG> >0x50 JTAG> >0x40 JTAG>Found Cortex-M3 r1p1, Little endian. >0x50 JTAG> >0x50 JTAG> >0x40 JTAG> >0x40 JTAG> >0x30 JTAG> >0x30 JTAG> >0x50 JTAG> >0x40 JTAG> >0x80 JTAG> >0x40 JTAG> >0x30 JTAG> >0x40 JTAG> >0x50 JTAG> >0x40 JTAG>
 >0x40 JTAG> >0x40 JTAG> >0x30 JTAG> >0x30 JTAG> >0x50 JTAG> >0x40 JTAG> >0x80 JTAG> >0x40 JTAG> >0x30 JTAG> >0x40 JTAG> >0x50 JTAG> >0x40 JTAG>TPIU fitted. >0x40 JTAG> >0x40 JTAG> >0x30 JTAG> >0x40 JTAG> >0x50 JTAG> >0x40 JTAG> >0x40 JTAG> >0x40 JTAG> >0x30 JTAG> >0x40 JTAG> >0x50 JTAG> >0x40 JTAG> >0x40 JTAG> >0x40 JTAG> >0x30 JTAG> >0x40 JTAG> >0x50 JTAG> >0x40 JTAG>  FPUnit: 6 code (BP) slots and 2 literal slots >0x40 JTAG> >0x40 JTAG> >0x30 JTAG> >0x40 JTAG> >0x50 JTAG> >0x40 JTAG> >0x40 JTAG>
 >0x40 JTAG> >0x30 JTAG> >0x30 JTAG> >0x50 JTAG> >0x40 JTAG> >0x80 JTAG> >0x40 JTAG> >0x30 JTAG> >0x40 JTAG> >0x50 JTAG> >0x40 JTAG> ScanLen=9 NumDevices=2 aId[0]=0x3BA00477 aIrRead[0]=0 aScanLen[0]=0 aScanRead[0]=0 (0152ms, 0585ms total)
T1498 001:899 JLINK_JTAG_GetDeviceID(DeviceIndex = 0)  returns 0x3BA00477 (0000ms, 0737ms total)
T1498 001:899 JLINK_JTAG_GetDeviceInfo(DeviceIndex = 0)  returns 0x00 (0000ms, 0737ms total)
T1498 001:899 JLINK_JTAG_GetDeviceID(DeviceIndex = 1)  returns 0x16410041 (0000ms, 0737ms total)
T1498 001:899 JLINK_JTAG_GetDeviceInfo(DeviceIndex = 1)  returns 0x00 (0000ms, 0737ms total)
T1498 001:899 JLINK_GetDLLVersion()  returns 44102 (0000ms, 0737ms total)
T1498 001:899 JLINK_CORE_GetFound()  returns 0x30000FF (0001ms, 0737ms total)
T1498 001:905 JLINK_GetDebugInfo(0x100) -- Value=0xE00FF003  returns 0x00 (0000ms, 0738ms total)
T1498 001:905 JLINK_GetDebugInfo(0x101)  returns 0xFFFFFFFF (0000ms, 0738ms total)
T1498 001:905 JLINK_ReadMem (0xE0041FF0, 0x0010 Bytes, ...) -- CPU is running -- CPU_ReadMem(16 bytes @ 0xE0041FF0) -- Data:  00 00 00 00 00 00 00 00 00 00 00 00 00 00 00 00  returns 0x00 (0005ms, 0738ms total)
T1498 001:910 JLINK_GetDebugInfo(0x102)  returns 0xFFFFFFFF (0000ms, 0743ms total)
T1498 001:910 JLINK_GetDebugInfo(0x103)  returns 0xFFFFFFFF (0000ms, 0743ms total)
T1498 001:910 JLINK_ReadMem (0xE0040FF0, 0x0010 Bytes, ...) -- CPU is running -- CPU_ReadMem(16 bytes @ 0xE0040FF0) -- Data:  0D 00 00 00 90 00 00 00 05 00 00 00 B1 00 00 00  returns 0x00 (0001ms, 0743ms total)
T1498 001:911 JLINK_GetDebugInfo(0x104)  returns 0xFFFFFFFF (0000ms, 0744ms total)
T1498 001:911 JLINK_GetDebugInfo(0x105)  returns 0xFFFFFFFF (0000ms, 0744ms total)
T1498 001:911 JLINK_GetDebugInfo(0x106)  returns 0xFFFFFFFF (0000ms, 0744ms total)
T1498 001:911 JLINK_GetDebugInfo(0x107)  returns 0xFFFFFFFF (0000ms, 0744ms total)
T1498 001:911 JLINK_GetDebugInfo(0x10C)  returns 0xFFFFFFFF (0000ms, 0744ms total)
T1498 001:911 JLINK_ReadMemU32(0xE000ED00, 0x0001 Items, ...) -- CPU is running -- CPU_ReadMem(4 bytes @ 0xE000ED00) -- Data:  31 C2 1F 41  returns 0x01 (0001ms, 0744ms total)
T1498 001:912 JLINK_SetResetType(JLINKARM_RESET_TYPE_NORMAL)  returns JLINKARM_RESET_TYPE_NORMAL (0000ms, 0745ms total)
T1498 001:912 JLINK_Reset() >0x308 JTAG>TotalIRLen = 9, IRPrint = 0x0011 >0x30 JTAG> >0x210 JTAG> >0x80 JTAG> >0x40 JTAG> >0x40 JTAG> >0x50 JTAG> >0x40 JTAG> >0x40 JTAG> >0x40 JTAG> >0x50 JTAG> >0x40 JTAG> >0x50 JTAG> >0x40 JTAG> >0x40 JTAG> >0x40 JTAG> >0x30 JTAG> >0x40 JTAG> >0x50 JTAG> >0x40 JTAG> >0x38 JTAG> >0x80 JTAG> >0x40 JTAG> >0x40 JTAG> >0x50 JTAG> >0x40 JTAG> >0x40 JTAG> >0x40 JTAG> >0x50 JTAG> >0x40 JTAG> >0x40 JTAG> >0x30 JTAG> >0x40 JTAG> >0x40 JTAG> >0x40 JTAG> >0x40 JTAG> >0x40 JTAG>
 >0x50 JTAG> >0x40 JTAG> >0x80 JTAG> >0x40 JTAG> >0x30 JTAG> >0x40 JTAG> >0x40 JTAG> >0x40 JTAG> >0x40 JTAG> >0x40 JTAG> >0x50 JTAG> >0x40 JTAG> >0x80 JTAG> >0x40 JTAG> >0x30 JTAG> >0x40 JTAG> >0x50 JTAG> >0x40 JTAG> >0x40 JTAG> >0x40 JTAG> >0x30 JTAG> >0x40 JTAG> >0x50 JTAG> >0x40 JTAG>Found Cortex-M3 r1p1, Little endian. >0x50 JTAG> >0x50 JTAG> >0x40 JTAG> >0x40 JTAG> >0x30 JTAG> >0x30 JTAG> >0x50 JTAG> >0x40 JTAG> >0x80 JTAG> >0x40 JTAG> >0x30 JTAG> >0x40 JTAG> >0x50 JTAG> >0x40 JTAG> >0x40 JTAG>
 >0x40 JTAG> >0x30 JTAG> >0x40 JTAG> >0x50 JTAG> >0x40 JTAG>TPIU fitted. >0x40 JTAG> >0x40 JTAG> >0x30 JTAG> >0x40 JTAG> >0x50 JTAG> >0x40 JTAG> >0x40 JTAG> >0x40 JTAG> >0x30 JTAG> >0x40 JTAG> >0x50 JTAG> >0x40 JTAG> >0x40 JTAG> >0x40 JTAG> >0x30 JTAG> >0x40 JTAG> >0x50 JTAG> >0x40 JTAG>  FPUnit: 6 code (BP) slots and 2 literal slots >0x40 JTAG> >0x40 JTAG> >0x30 JTAG> >0x40 JTAG> >0x50 JTAG> >0x40 JTAG> >0x40 JTAG> >0x40 JTAG> >0x30 JTAG> >0x40 JTAG> >0x50 JTAG> >0x40 JTAG> >0x48 JTAG> >0x80 JTAG>
 >0x40 JTAG> >0x40 JTAG> >0x50 JTAG> >0x40 JTAG> >0x40 JTAG> >0x40 JTAG> >0x50 JTAG> >0x40 JTAG> >0x40 JTAG> >0x30 JTAG> >0x40 JTAG> >0x40 JTAG> >0x40 JTAG> >0x40 JTAG> >0x40 JTAG> >0x50 JTAG> >0x40 JTAG> >0x80 JTAG> >0x40 JTAG> >0x30 JTAG> >0x40 JTAG> >0x40 JTAG> >0x40 JTAG> >0x40 JTAG> >0x40 JTAG> >0x50 JTAG> >0x40 JTAG> >0x80 JTAG> >0x40 JTAG> >0x30 JTAG> >0x40 JTAG> >0x50 JTAG> >0x40 JTAG> >0x40 JTAG> >0x40 JTAG> >0x30 JTAG> >0x40 JTAG> >0x50 JTAG> >0x40 JTAG>Found Cortex-M3 r1p1, Little endian.
 >0x50 JTAG> >0x50 JTAG> >0x40 JTAG> >0x40 JTAG> >0x30 JTAG> >0x30 JTAG> >0x50 JTAG> >0x40 JTAG> >0x80 JTAG> >0x40 JTAG> >0x30 JTAG> >0x40 JTAG> >0x50 JTAG> >0x40 JTAG> >0x40 JTAG> >0x40 JTAG> >0x30 JTAG> >0x40 JTAG> >0x50 JTAG> >0x40 JTAG>TPIU fitted. >0x40 JTAG> >0x40 JTAG> >0x30 JTAG> >0x40 JTAG> >0x50 JTAG> >0x40 JTAG> >0x40 JTAG> >0x40 JTAG> >0x30 JTAG> >0x40 JTAG> >0x50 JTAG> >0x40 JTAG> >0x40 JTAG> >0x40 JTAG> >0x30 JTAG> >0x40 JTAG> >0x50 JTAG> >0x40 JTAG>
  FPUnit: 6 code (BP) slots and 2 literal slots >0x40 JTAG> >0x40 JTAG> >0x30 JTAG> >0x40 JTAG> >0x50 JTAG> >0x40 JTAG> >0x40 JTAG> >0x40 JTAG> >0x30 JTAG> >0x40 JTAG> >0x50 JTAG> >0x40 JTAG> -- CPU is running -- CPU_WriteMem(4 bytes @ 0xE000EDF0) -- CPU is running -- CPU_WriteMem(4 bytes @ 0xE000EDFC) -- CPU is running -- CPU_WriteMem(4 bytes @ 0xE000ED0C) -- CPU is running -- CPU_ReadMem(4 bytes @ 0xE000EDF0) -- CPU is running -- CPU_ReadMem(4 bytes @ 0xE000EDF0) -- CPU is running
 -- CPU_WriteMem(4 bytes @ 0xE000EDF0) -- CPU is running -- CPU_WriteMem(4 bytes @ 0xE000EDFC) -- CPU is running -- CPU_ReadMem(4 bytes @ 0xE000EDF0) >0x90 JTAG> >0x40 JTAG> >0x30 JTAG> >0x40 JTAG> >0x50 JTAG> >0x40 JTAG> -- CPU_WriteMem(4 bytes @ 0xE000EDFC) -- CPU_WriteMem(4 bytes @ 0xE0001028) -- CPU_WriteMem(4 bytes @ 0xE0001038) -- CPU_WriteMem(4 bytes @ 0xE0001048) -- CPU_WriteMem(4 bytes @ 0xE0001058) (0295ms, 0745ms total)
T1498 002:207 JLINK_Halt()  returns 0x00 (0000ms, 1040ms total)
T1498 002:207 JLINK_IsHalted()  returns TRUE (0000ms, 1040ms total)
T1498 002:207 JLINK_ReadMemU32(0xE000EDF0, 0x0001 Items, ...) -- CPU_ReadMem(4 bytes @ 0xE000EDF0) -- Data:  03 00 03 00  returns 0x01 (0001ms, 1040ms total)
T1498 002:208 JLINK_WriteU32(0xE000EDF0, 0xA05F0003) -- CPU_WriteMem(4 bytes @ 0xE000EDF0)  returns 0x00 (0001ms, 1041ms total)
T1498 002:209 JLINK_WriteU32(0xE000EDFC, 0x01000000) -- CPU_WriteMem(4 bytes @ 0xE000EDFC)  returns 0x00 (0001ms, 1042ms total)
T1498 002:230 JLINK_GetHWStatus(...)  returns 0x00 (0002ms, 1043ms total)
T1498 002:245 JLINK_GetNumBPUnits(Type = 0xFFFFFF00)  returns 0x06 (0000ms, 1045ms total)
T1498 002:245 JLINK_GetNumBPUnits(Type = 0xF0)  returns 0x2000 (0000ms, 1045ms total)
T1498 002:245 JLINK_GetNumWPUnits()  returns 0x04 (0000ms, 1045ms total)
T1498 002:260 JLINK_GetSpeed()  returns 0x12C0 (0000ms, 1046ms total)
T1498 002:265 JLINK_ReadMemU32(0xE000E004, 0x0001 Items, ...) -- CPU_ReadMem(4 bytes @ 0xE000E004) -- Data:  01 00 00 00  returns 0x01 (0001ms, 1046ms total)
T1498 002:266 JLINK_ReadMemU32(0xE000E004, 0x0001 Items, ...) -- CPU_ReadMem(4 bytes @ 0xE000E004) -- Data:  01 00 00 00  returns 0x01 (0001ms, 1047ms total)
T1498 002:267 JLINK_WriteMem(0xE0001000, 0x001C Bytes, ...) -- Data:  01 00 00 00 00 00 00 00 00 00 00 00 00 00 00 00 ... -- CPU_WriteMem(28 bytes @ 0xE0001000)  returns 0x1C (0001ms, 1048ms total)
T1498 002:268 JLINK_ReadMem (0xE0001000, 0x001C Bytes, ...) -- CPU_ReadMem(28 bytes @ 0xE0001000) -- Data:  01 00 00 40 00 00 00 00 00 00 00 00 00 00 00 00 ...  returns 0x00 (0001ms, 1049ms total)
T1498 002:269 JLINK_Halt()  returns 0x00 (0000ms, 1050ms total)
T1498 002:269 JLINK_IsHalted()  returns TRUE (0000ms, 1050ms total)
T1498 002:272 JLINK_WriteMem(0x20000000, 0x0164 Bytes, ...) -- Data:  00 BE 0A E0 0D 78 2D 06 68 40 08 24 40 00 00 D3 ... -- CPU_WriteMem(356 bytes @ 0x20000000)  returns 0x164 (0003ms, 1050ms total)
T1498 002:275 JLINK_WriteReg(R0, 0x08000000)  returns 0x00 (0000ms, 1053ms total)
T1498 002:275 JLINK_WriteReg(R1, 0x00B71B00)  returns 0x00 (0000ms, 1053ms total)
T1498 002:275 JLINK_WriteReg(R2, 0x00000001)  returns 0x00 (0000ms, 1053ms total)
T1498 002:275 JLINK_WriteReg(R3, 0x00000000)  returns 0x00 (0000ms, 1053ms total)
T1498 002:275 JLINK_WriteReg(R4, 0x00000000)  returns 0x00 (0000ms, 1053ms total)
T1498 002:275 JLINK_WriteReg(R5, 0x00000000)  returns 0x00 (0000ms, 1053ms total)
T1498 002:275 JLINK_WriteReg(R6, 0x00000000)  returns 0x00 (0000ms, 1053ms total)
T1498 002:275 JLINK_WriteReg(R7, 0x00000000)  returns 0x00 (0000ms, 1053ms total)
T1498 002:275 JLINK_WriteReg(R8, 0x00000000)  returns 0x00 (0000ms, 1053ms total)
T1498 002:275 JLINK_WriteReg(R9, 0x20000160)  returns 0x00 (0000ms, 1053ms total)
T1498 002:275 JLINK_WriteReg(R10, 0x00000000)  returns 0x00 (0000ms, 1053ms total)
T1498 002:275 JLINK_WriteReg(R11, 0x00000000)  returns 0x00 (0000ms, 1053ms total)
T1498 002:275 JLINK_WriteReg(R12, 0x00000000)  returns 0x00 (0000ms, 1053ms total)
T1498 002:275 JLINK_WriteReg(R13, 0x20001000)  returns 0x00 (0000ms, 1053ms total)
T1498 002:275 JLINK_WriteReg(R14, 0x20000001)  returns 0x00 (0000ms, 1053ms total)
T1498 002:275 JLINK_WriteReg(R15, 0x20000038)  returns 0x00 (0000ms, 1053ms total)
T1498 002:275 JLINK_WriteReg(XPSR, 0x01000000)  returns 0x00 (0000ms, 1053ms total)
T1498 002:275 JLINK_WriteReg(MSP, 0x20001000)  returns 0x00 (0000ms, 1053ms total)
T1498 002:275 JLINK_WriteReg(PSP, 0x20001000)  returns 0x00 (0000ms, 1053ms total)
T1498 002:275 JLINK_WriteReg(CFBP, 0x00000000)  returns 0x00 (0000ms, 1053ms total)
T1498 002:275 JLINK_SetBPEx(Addr = 0x20000000, Type = 0xFFFFFFF2) -- CPU_ReadMem(2 bytes @ 0x20000000)  returns 0x00000001 (0001ms, 1053ms total)
T1498 002:276 JLINK_Go() -- CPU_WriteMem(2 bytes @ 0x20000000) -- CPU_WriteMem(4 bytes @ 0xE0002008) -- CPU_WriteMem(4 bytes @ 0xE000200C) -- CPU_WriteMem(4 bytes @ 0xE0002010) -- CPU_WriteMem(4 bytes @ 0xE0002014) -- CPU_WriteMem(4 bytes @ 0xE0002018) -- CPU_WriteMem(4 bytes @ 0xE000201C) (0010ms, 1054ms total)
T1498 002:286 JLINK_IsHalted() -- CPU_ReadMem(2 bytes @ 0x20000000)  returns TRUE (0005ms, 1064ms total)
T1498 002:291 JLINK_ReadReg(R15)  returns 0x20000000 (0000ms, 1064ms total)
T1498 002:291 JLINK_ClrBPEx(BPHandle = 0x00000001)  returns 0x00 (0000ms, 1064ms total)
T1498 002:291 JLINK_ReadReg(R0)  returns 0x00000000 (0000ms, 1064ms total)
T1498 002:291 JLINK_WriteReg(R0, 0x08000000)  returns 0x00 (0000ms, 1064ms total)
T1498 002:291 JLINK_WriteReg(R1, 0x00000400)  returns 0x00 (0000ms, 1064ms total)
T1498 002:291 JLINK_WriteReg(R2, 0x000000FF)  returns 0x00 (0000ms, 1064ms total)
T1498 002:291 JLINK_WriteReg(R3, 0x00000000)  returns 0x00 (0000ms, 1064ms total)
T1498 002:291 JLINK_WriteReg(R4, 0x00000000)  returns 0x00 (0000ms, 1064ms total)
T1498 002:291 JLINK_WriteReg(R5, 0x00000000)  returns 0x00 (0000ms, 1064ms total)
T1498 002:291 JLINK_WriteReg(R6, 0x00000000)  returns 0x00 (0000ms, 1064ms total)
T1498 002:291 JLINK_WriteReg(R7, 0x00000000)  returns 0x00 (0000ms, 1064ms total)
T1498 002:291 JLINK_WriteReg(R8, 0x00000000)  returns 0x00 (0000ms, 1064ms total)
T1498 002:291 JLINK_WriteReg(R9, 0x20000160)  returns 0x00 (0000ms, 1064ms total)
T1498 002:291 JLINK_WriteReg(R10, 0x00000000)  returns 0x00 (0000ms, 1064ms total)
T1498 002:291 JLINK_WriteReg(R11, 0x00000000)  returns 0x00 (0000ms, 1064ms total)
T1498 002:291 JLINK_WriteReg(R12, 0x00000000)  returns 0x00 (0000ms, 1064ms total)
T1498 002:291 JLINK_WriteReg(R13, 0x20001000)  returns 0x00 (0000ms, 1064ms total)
T1498 002:291 JLINK_WriteReg(R14, 0x20000001)  returns 0x00 (0000ms, 1064ms total)
T1498 002:291 JLINK_WriteReg(R15, 0x20000020)  returns 0x00 (0000ms, 1064ms total)
T1498 002:291 JLINK_WriteReg(XPSR, 0x01000000)  returns 0x00 (0000ms, 1064ms total)
T1498 002:291 JLINK_WriteReg(MSP, 0x20001000)  returns 0x00 (0000ms, 1064ms total)
T1498 002:291 JLINK_WriteReg(PSP, 0x20001000)  returns 0x00 (0000ms, 1064ms total)
T1498 002:291 JLINK_WriteReg(CFBP, 0x00000000)  returns 0x00 (0000ms, 1064ms total)
T1498 002:291 JLINK_SetBPEx(Addr = 0x20000000, Type = 0xFFFFFFF2)  returns 0x00000002 (0000ms, 1064ms total)
T1498 002:291 JLINK_Go() -- CPU_WriteMem(4 bytes @ 0xE0002008) -- CPU_WriteMem(4 bytes @ 0xE000200C) -- CPU_WriteMem(4 bytes @ 0xE0002010) -- CPU_WriteMem(4 bytes @ 0xE0002014) -- CPU_WriteMem(4 bytes @ 0xE0002018) -- CPU_WriteMem(4 bytes @ 0xE000201C) (0009ms, 1064ms total)
T1498 002:300 JLINK_IsHalted() -- CPU_ReadMem(2 bytes @ 0x20000000)  returns TRUE (0004ms, 1073ms total)
T1498 002:304 JLINK_ReadReg(R15)  returns 0x20000000 (0000ms, 1073ms total)
T1498 002:304 JLINK_ClrBPEx(BPHandle = 0x00000002)  returns 0x00 (0000ms, 1073ms total)
T1498 002:304 JLINK_ReadReg(R0)  returns 0x00000001 (0000ms, 1073ms total)
T1498 002:304 JLINK_WriteReg(R0, 0x08000000)  returns 0x00 (0000ms, 1073ms total)
T1498 002:304 JLINK_WriteReg(R1, 0x00000400)  returns 0x00 (0000ms, 1073ms total)
T1498 002:304 JLINK_WriteReg(R2, 0x000000FF)  returns 0x00 (0000ms, 1073ms total)
T1498 002:304 JLINK_WriteReg(R3, 0x00000000)  returns 0x00 (0000ms, 1073ms total)
T1498 002:304 JLINK_WriteReg(R4, 0x00000000)  returns 0x00 (0000ms, 1073ms total)
T1498 002:304 JLINK_WriteReg(R5, 0x00000000)  returns 0x00 (0000ms, 1073ms total)
T1498 002:304 JLINK_WriteReg(R6, 0x00000000)  returns 0x00 (0000ms, 1073ms total)
T1498 002:304 JLINK_WriteReg(R7, 0x00000000)  returns 0x00 (0000ms, 1073ms total)
T1498 002:304 JLINK_WriteReg(R8, 0x00000000)  returns 0x00 (0000ms, 1073ms total)
T1498 002:304 JLINK_WriteReg(R9, 0x20000160)  returns 0x00 (0000ms, 1073ms total)
T1498 002:304 JLINK_WriteReg(R10, 0x00000000)  returns 0x00 (0000ms, 1073ms total)
T1498 002:304 JLINK_WriteReg(R11, 0x00000000)  returns 0x00 (0000ms, 1073ms total)
T1498 002:304 JLINK_WriteReg(R12, 0x00000000)  returns 0x00 (0000ms, 1073ms total)
T1498 002:304 JLINK_WriteReg(R13, 0x20001000)  returns 0x00 (0000ms, 1073ms total)
T1498 002:304 JLINK_WriteReg(R14, 0x20000001)  returns 0x00 (0000ms, 1073ms total)
T1498 002:304 JLINK_WriteReg(R15, 0x200000B6)  returns 0x00 (0000ms, 1073ms total)
T1498 002:304 JLINK_WriteReg(XPSR, 0x01000000)  returns 0x00 (0000ms, 1073ms total)
T1498 002:304 JLINK_WriteReg(MSP, 0x20001000)  returns 0x00 (0000ms, 1073ms total)
T1498 002:304 JLINK_WriteReg(PSP, 0x20001000)  returns 0x00 (0000ms, 1073ms total)
T1498 002:304 JLINK_WriteReg(CFBP, 0x00000000)  returns 0x00 (0000ms, 1073ms total)
T1498 002:304 JLINK_SetBPEx(Addr = 0x20000000, Type = 0xFFFFFFF2)  returns 0x00000003 (0000ms, 1073ms total)
T1498 002:304 JLINK_Go() -- CPU_WriteMem(4 bytes @ 0xE0002008) -- CPU_WriteMem(4 bytes @ 0xE000200C) -- CPU_WriteMem(4 bytes @ 0xE0002010) -- CPU_WriteMem(4 bytes @ 0xE0002014) -- CPU_WriteMem(4 bytes @ 0xE0002018) -- CPU_WriteMem(4 bytes @ 0xE000201C) (0008ms, 1073ms total)
T1498 002:312 JLINK_IsHalted()  returns FALSE (0001ms, 1081ms total)
T1498 002:392 JLINK_IsHalted() -- CPU_ReadMem(2 bytes @ 0x20000000)  returns TRUE (0004ms, 1081ms total)
T1498 002:396 JLINK_ReadReg(R15)  returns 0x20000000 (0000ms, 1081ms total)
T1498 002:396 JLINK_ClrBPEx(BPHandle = 0x00000003)  returns 0x00 (0000ms, 1081ms total)
T1498 002:396 JLINK_ReadReg(R0)  returns 0x00000000 (0000ms, 1081ms total)
T1498 002:396 JLINK_WriteReg(R0, 0x08000400)  returns 0x00 (0000ms, 1081ms total)
T1498 002:396 JLINK_WriteReg(R1, 0x00000400)  returns 0x00 (0000ms, 1081ms total)
T1498 002:396 JLINK_WriteReg(R2, 0x000000FF)  returns 0x00 (0000ms, 1081ms total)
T1498 002:396 JLINK_WriteReg(R3, 0x00000000)  returns 0x00 (0000ms, 1081ms total)
T1498 002:396 JLINK_WriteReg(R4, 0x00000000)  returns 0x00 (0000ms, 1081ms total)
T1498 002:396 JLINK_WriteReg(R5, 0x00000000)  returns 0x00 (0000ms, 1081ms total)
T1498 002:396 JLINK_WriteReg(R6, 0x00000000)  returns 0x00 (0000ms, 1081ms total)
T1498 002:396 JLINK_WriteReg(R7, 0x00000000)  returns 0x00 (0000ms, 1081ms total)
T1498 002:396 JLINK_WriteReg(R8, 0x00000000)  returns 0x00 (0000ms, 1081ms total)
T1498 002:396 JLINK_WriteReg(R9, 0x20000160)  returns 0x00 (0000ms, 1081ms total)
T1498 002:396 JLINK_WriteReg(R10, 0x00000000)  returns 0x00 (0000ms, 1081ms total)
T1498 002:396 JLINK_WriteReg(R11, 0x00000000)  returns 0x00 (0000ms, 1081ms total)
T1498 002:396 JLINK_WriteReg(R12, 0x00000000)  returns 0x00 (0000ms, 1081ms total)
T1498 002:396 JLINK_WriteReg(R13, 0x20001000)  returns 0x00 (0000ms, 1081ms total)
T1498 002:396 JLINK_WriteReg(R14, 0x20000001)  returns 0x00 (0000ms, 1081ms total)
T1498 002:396 JLINK_WriteReg(R15, 0x20000020)  returns 0x00 (0000ms, 1081ms total)
T1498 002:396 JLINK_WriteReg(XPSR, 0x01000000)  returns 0x00 (0000ms, 1081ms total)
T1498 002:396 JLINK_WriteReg(MSP, 0x20001000)  returns 0x00 (0000ms, 1081ms total)
T1498 002:396 JLINK_WriteReg(PSP, 0x20001000)  returns 0x00 (0000ms, 1081ms total)
T1498 002:396 JLINK_WriteReg(CFBP, 0x00000000)  returns 0x00 (0000ms, 1081ms total)
T1498 002:396 JLINK_SetBPEx(Addr = 0x20000000, Type = 0xFFFFFFF2)  returns 0x00000004 (0001ms, 1081ms total)
T1498 002:397 JLINK_Go() -- CPU_WriteMem(4 bytes @ 0xE0002008) -- CPU_WriteMem(4 bytes @ 0xE000200C) -- CPU_WriteMem(4 bytes @ 0xE0002010) -- CPU_WriteMem(4 bytes @ 0xE0002014) -- CPU_WriteMem(4 bytes @ 0xE0002018) -- CPU_WriteMem(4 bytes @ 0xE000201C) (0007ms, 1082ms total)
T1498 002:404 JLINK_IsHalted() -- CPU_ReadMem(2 bytes @ 0x20000000)  returns TRUE (0004ms, 1089ms total)
T1498 002:408 JLINK_ReadReg(R15)  returns 0x20000000 (0000ms, 1089ms total)
T1498 002:408 JLINK_ClrBPEx(BPHandle = 0x00000004)  returns 0x00 (0000ms, 1089ms total)
T1498 002:408 JLINK_ReadReg(R0)  returns 0x00000001 (0000ms, 1089ms total)
T1498 002:408 JLINK_WriteReg(R0, 0x08000400)  returns 0x00 (0000ms, 1089ms total)
T1498 002:408 JLINK_WriteReg(R1, 0x00000400)  returns 0x00 (0000ms, 1089ms total)
T1498 002:408 JLINK_WriteReg(R2, 0x000000FF)  returns 0x00 (0000ms, 1089ms total)
T1498 002:408 JLINK_WriteReg(R3, 0x00000000)  returns 0x00 (0000ms, 1089ms total)
T1498 002:408 JLINK_WriteReg(R4, 0x00000000)  returns 0x00 (0000ms, 1089ms total)
T1498 002:408 JLINK_WriteReg(R5, 0x00000000)  returns 0x00 (0000ms, 1089ms total)
T1498 002:408 JLINK_WriteReg(R6, 0x00000000)  returns 0x00 (0000ms, 1089ms total)
T1498 002:408 JLINK_WriteReg(R7, 0x00000000)  returns 0x00 (0000ms, 1089ms total)
T1498 002:408 JLINK_WriteReg(R8, 0x00000000)  returns 0x00 (0000ms, 1089ms total)
T1498 002:408 JLINK_WriteReg(R9, 0x20000160)  returns 0x00 (0000ms, 1089ms total)
T1498 002:408 JLINK_WriteReg(R10, 0x00000000)  returns 0x00 (0000ms, 1089ms total)
T1498 002:408 JLINK_WriteReg(R11, 0x00000000)  returns 0x00 (0001ms, 1089ms total)
T1498 002:409 JLINK_WriteReg(R12, 0x00000000)  returns 0x00 (0000ms, 1090ms total)
T1498 002:409 JLINK_WriteReg(R13, 0x20001000)  returns 0x00 (0000ms, 1090ms total)
T1498 002:409 JLINK_WriteReg(R14, 0x20000001)  returns 0x00 (0000ms, 1090ms total)
T1498 002:409 JLINK_WriteReg(R15, 0x200000B6)  returns 0x00 (0000ms, 1090ms total)
T1498 002:409 JLINK_WriteReg(XPSR, 0x01000000)  returns 0x00 (0000ms, 1090ms total)
T1498 002:409 JLINK_WriteReg(MSP, 0x20001000)  returns 0x00 (0000ms, 1090ms total)
T1498 002:409 JLINK_WriteReg(PSP, 0x20001000)  returns 0x00 (0000ms, 1090ms total)
T1498 002:409 JLINK_WriteReg(CFBP, 0x00000000)  returns 0x00 (0000ms, 1090ms total)
T1498 002:409 JLINK_SetBPEx(Addr = 0x20000000, Type = 0xFFFFFFF2)  returns 0x00000005 (0000ms, 1090ms total)
T1498 002:409 JLINK_Go() -- CPU_WriteMem(4 bytes @ 0xE0002008) -- CPU_WriteMem(4 bytes @ 0xE000200C) -- CPU_WriteMem(4 bytes @ 0xE0002010) -- CPU_WriteMem(4 bytes @ 0xE0002014) -- CPU_WriteMem(4 bytes @ 0xE0002018) -- CPU_WriteMem(4 bytes @ 0xE000201C) (0007ms, 1090ms total)
T1498 002:416 JLINK_IsHalted()  returns FALSE (0001ms, 1097ms total)
T1498 002:461 JLINK_IsHalted() -- CPU_ReadMem(2 bytes @ 0x20000000)  returns TRUE (0004ms, 1097ms total)
T1498 002:465 JLINK_ReadReg(R15)  returns 0x20000000 (0000ms, 1097ms total)
T1498 002:465 JLINK_ClrBPEx(BPHandle = 0x00000005)  returns 0x00 (0000ms, 1097ms total)
T1498 002:465 JLINK_ReadReg(R0)  returns 0x00000000 (0000ms, 1097ms total)
T1498 002:465 JLINK_WriteReg(R0, 0x08000800)  returns 0x00 (0000ms, 1097ms total)
T1498 002:465 JLINK_WriteReg(R1, 0x00000400)  returns 0x00 (0000ms, 1097ms total)
T1498 002:465 JLINK_WriteReg(R2, 0x000000FF)  returns 0x00 (0000ms, 1097ms total)
T1498 002:465 JLINK_WriteReg(R3, 0x00000000)  returns 0x00 (0000ms, 1097ms total)
T1498 002:465 JLINK_WriteReg(R4, 0x00000000)  returns 0x00 (0000ms, 1097ms total)
T1498 002:465 JLINK_WriteReg(R5, 0x00000000)  returns 0x00 (0000ms, 1097ms total)
T1498 002:465 JLINK_WriteReg(R6, 0x00000000)  returns 0x00 (0000ms, 1097ms total)
T1498 002:465 JLINK_WriteReg(R7, 0x00000000)  returns 0x00 (0000ms, 1097ms total)
T1498 002:465 JLINK_WriteReg(R8, 0x00000000)  returns 0x00 (0000ms, 1097ms total)
T1498 002:465 JLINK_WriteReg(R9, 0x20000160)  returns 0x00 (0000ms, 1097ms total)
T1498 002:465 JLINK_WriteReg(R10, 0x00000000)  returns 0x00 (0000ms, 1097ms total)
T1498 002:465 JLINK_WriteReg(R11, 0x00000000)  returns 0x00 (0000ms, 1097ms total)
T1498 002:465 JLINK_WriteReg(R12, 0x00000000)  returns 0x00 (0000ms, 1097ms total)
T1498 002:465 JLINK_WriteReg(R13, 0x20001000)  returns 0x00 (0000ms, 1097ms total)
T1498 002:465 JLINK_WriteReg(R14, 0x20000001)  returns 0x00 (0000ms, 1097ms total)
T1498 002:465 JLINK_WriteReg(R15, 0x20000020)  returns 0x00 (0000ms, 1097ms total)
T1498 002:465 JLINK_WriteReg(XPSR, 0x01000000)  returns 0x00 (0000ms, 1097ms total)
T1498 002:465 JLINK_WriteReg(MSP, 0x20001000)  returns 0x00 (0000ms, 1097ms total)
T1498 002:465 JLINK_WriteReg(PSP, 0x20001000)  returns 0x00 (0000ms, 1097ms total)
T1498 002:465 JLINK_WriteReg(CFBP, 0x00000000)  returns 0x00 (0000ms, 1097ms total)
T1498 002:465 JLINK_SetBPEx(Addr = 0x20000000, Type = 0xFFFFFFF2)  returns 0x00000006 (0000ms, 1097ms total)
T1498 002:465 JLINK_Go() -- CPU_WriteMem(4 bytes @ 0xE0002008) -- CPU_WriteMem(4 bytes @ 0xE000200C) -- CPU_WriteMem(4 bytes @ 0xE0002010) -- CPU_WriteMem(4 bytes @ 0xE0002014) -- CPU_WriteMem(4 bytes @ 0xE0002018) -- CPU_WriteMem(4 bytes @ 0xE000201C) (0008ms, 1097ms total)
T1498 002:473 JLINK_IsHalted() -- CPU_ReadMem(2 bytes @ 0x20000000)  returns TRUE (0004ms, 1105ms total)
T1498 002:477 JLINK_ReadReg(R15)  returns 0x20000000 (0000ms, 1105ms total)
T1498 002:477 JLINK_ClrBPEx(BPHandle = 0x00000006)  returns 0x00 (0000ms, 1105ms total)
T1498 002:477 JLINK_ReadReg(R0)  returns 0x00000001 (0001ms, 1105ms total)
T1498 002:478 JLINK_WriteReg(R0, 0x08000800)  returns 0x00 (0000ms, 1106ms total)
T1498 002:478 JLINK_WriteReg(R1, 0x00000400)  returns 0x00 (0000ms, 1106ms total)
T1498 002:478 JLINK_WriteReg(R2, 0x000000FF)  returns 0x00 (0000ms, 1106ms total)
T1498 002:478 JLINK_WriteReg(R3, 0x00000000)  returns 0x00 (0000ms, 1106ms total)
T1498 002:478 JLINK_WriteReg(R4, 0x00000000)  returns 0x00 (0000ms, 1106ms total)
T1498 002:478 JLINK_WriteReg(R5, 0x00000000)  returns 0x00 (0000ms, 1106ms total)
T1498 002:478 JLINK_WriteReg(R6, 0x00000000)  returns 0x00 (0000ms, 1106ms total)
T1498 002:478 JLINK_WriteReg(R7, 0x00000000)  returns 0x00 (0000ms, 1106ms total)
T1498 002:478 JLINK_WriteReg(R8, 0x00000000)  returns 0x00 (0000ms, 1106ms total)
T1498 002:478 JLINK_WriteReg(R9, 0x20000160)  returns 0x00 (0000ms, 1106ms total)
T1498 002:478 JLINK_WriteReg(R10, 0x00000000)  returns 0x00 (0000ms, 1106ms total)
T1498 002:478 JLINK_WriteReg(R11, 0x00000000)  returns 0x00 (0000ms, 1106ms total)
T1498 002:478 JLINK_WriteReg(R12, 0x00000000)  returns 0x00 (0000ms, 1106ms total)
T1498 002:478 JLINK_WriteReg(R13, 0x20001000)  returns 0x00 (0000ms, 1106ms total)
T1498 002:478 JLINK_WriteReg(R14, 0x20000001)  returns 0x00 (0000ms, 1106ms total)
T1498 002:478 JLINK_WriteReg(R15, 0x200000B6)  returns 0x00 (0000ms, 1106ms total)
T1498 002:478 JLINK_WriteReg(XPSR, 0x01000000)  returns 0x00 (0000ms, 1106ms total)
T1498 002:478 JLINK_WriteReg(MSP, 0x20001000)  returns 0x00 (0000ms, 1106ms total)
T1498 002:478 JLINK_WriteReg(PSP, 0x20001000)  returns 0x00 (0000ms, 1106ms total)
T1498 002:478 JLINK_WriteReg(CFBP, 0x00000000)  returns 0x00 (0000ms, 1106ms total)
T1498 002:478 JLINK_SetBPEx(Addr = 0x20000000, Type = 0xFFFFFFF2)  returns 0x00000007 (0000ms, 1106ms total)
T1498 002:478 JLINK_Go() -- CPU_WriteMem(4 bytes @ 0xE0002008) -- CPU_WriteMem(4 bytes @ 0xE000200C) -- CPU_WriteMem(4 bytes @ 0xE0002010) -- CPU_WriteMem(4 bytes @ 0xE0002014) -- CPU_WriteMem(4 bytes @ 0xE0002018) -- CPU_WriteMem(4 bytes @ 0xE000201C) (0007ms, 1106ms total)
T1498 002:485 JLINK_IsHalted()  returns FALSE (0001ms, 1113ms total)
T1498 002:489 JLINK_IsHalted()  returns FALSE (0001ms, 1113ms total)
T1498 002:491 JLINK_IsHalted()  returns FALSE (0001ms, 1113ms total)
T1498 002:493 JLINK_IsHalted()  returns FALSE (0001ms, 1113ms total)
T1498 002:495 JLINK_IsHalted()  returns FALSE (0001ms, 1113ms total)
T1498 002:497 JLINK_IsHalted()  returns FALSE (0001ms, 1113ms total)
T1498 002:499 JLINK_IsHalted()  returns FALSE (0001ms, 1113ms total)
T1498 002:501 JLINK_IsHalted()  returns FALSE (0001ms, 1113ms total)
T1498 002:503 JLINK_IsHalted()  returns FALSE (0001ms, 1113ms total)
T1498 002:505 JLINK_IsHalted()  returns FALSE (0001ms, 1113ms total)
T1498 002:507 JLINK_IsHalted() -- CPU_ReadMem(2 bytes @ 0x20000000)  returns TRUE (0004ms, 1113ms total)
T1498 002:511 JLINK_ReadReg(R15)  returns 0x20000000 (0000ms, 1113ms total)
T1498 002:511 JLINK_ClrBPEx(BPHandle = 0x00000007)  returns 0x00 (0000ms, 1113ms total)
T1498 002:511 JLINK_ReadReg(R0)  returns 0x00000000 (0000ms, 1113ms total)
T1498 002:512 JLINK_WriteReg(R0, 0x08000C00)  returns 0x00 (0000ms, 1113ms total)
T1498 002:512 JLINK_WriteReg(R1, 0x00000400)  returns 0x00 (0000ms, 1113ms total)
T1498 002:512 JLINK_WriteReg(R2, 0x000000FF)  returns 0x00 (0000ms, 1113ms total)
T1498 002:512 JLINK_WriteReg(R3, 0x00000000)  returns 0x00 (0000ms, 1113ms total)
T1498 002:512 JLINK_WriteReg(R4, 0x00000000)  returns 0x00 (0000ms, 1113ms total)
T1498 002:512 JLINK_WriteReg(R5, 0x00000000)  returns 0x00 (0000ms, 1113ms total)
T1498 002:512 JLINK_WriteReg(R6, 0x00000000)  returns 0x00 (0000ms, 1113ms total)
T1498 002:512 JLINK_WriteReg(R7, 0x00000000)  returns 0x00 (0000ms, 1113ms total)
T1498 002:512 JLINK_WriteReg(R8, 0x00000000)  returns 0x00 (0000ms, 1113ms total)
T1498 002:512 JLINK_WriteReg(R9, 0x20000160)  returns 0x00 (0000ms, 1113ms total)
T1498 002:512 JLINK_WriteReg(R10, 0x00000000)  returns 0x00 (0000ms, 1113ms total)
T1498 002:512 JLINK_WriteReg(R11, 0x00000000)  returns 0x00 (0000ms, 1113ms total)
T1498 002:512 JLINK_WriteReg(R12, 0x00000000)  returns 0x00 (0000ms, 1113ms total)
T1498 002:512 JLINK_WriteReg(R13, 0x20001000)  returns 0x00 (0000ms, 1113ms total)
T1498 002:512 JLINK_WriteReg(R14, 0x20000001)  returns 0x00 (0000ms, 1113ms total)
T1498 002:512 JLINK_WriteReg(R15, 0x20000020)  returns 0x00 (0000ms, 1113ms total)
T1498 002:512 JLINK_WriteReg(XPSR, 0x01000000)  returns 0x00 (0000ms, 1113ms total)
T1498 002:512 JLINK_WriteReg(MSP, 0x20001000)  returns 0x00 (0000ms, 1113ms total)
T1498 002:512 JLINK_WriteReg(PSP, 0x20001000)  returns 0x00 (0000ms, 1113ms total)
T1498 002:512 JLINK_WriteReg(CFBP, 0x00000000)  returns 0x00 (0000ms, 1113ms total)
T1498 002:512 JLINK_SetBPEx(Addr = 0x20000000, Type = 0xFFFFFFF2)  returns 0x00000008 (0000ms, 1113ms total)
T1498 002:512 JLINK_Go() -- CPU_WriteMem(4 bytes @ 0xE0002008) -- CPU_WriteMem(4 bytes @ 0xE000200C) -- CPU_WriteMem(4 bytes @ 0xE0002010) -- CPU_WriteMem(4 bytes @ 0xE0002014) -- CPU_WriteMem(4 bytes @ 0xE0002018) -- CPU_WriteMem(4 bytes @ 0xE000201C) (0009ms, 1113ms total)
T1498 002:521 JLINK_IsHalted() -- CPU_ReadMem(2 bytes @ 0x20000000)  returns TRUE (0005ms, 1122ms total)
T1498 002:526 JLINK_ReadReg(R15)  returns 0x20000000 (0000ms, 1122ms total)
T1498 002:526 JLINK_ClrBPEx(BPHandle = 0x00000008)  returns 0x00 (0000ms, 1122ms total)
T1498 002:526 JLINK_ReadReg(R0)  returns 0x00000001 (0000ms, 1122ms total)
T1498 002:526 JLINK_WriteReg(R0, 0x08000C00)  returns 0x00 (0000ms, 1122ms total)
T1498 002:526 JLINK_WriteReg(R1, 0x00000400)  returns 0x00 (0000ms, 1122ms total)
T1498 002:526 JLINK_WriteReg(R2, 0x000000FF)  returns 0x00 (0000ms, 1122ms total)
T1498 002:526 JLINK_WriteReg(R3, 0x00000000)  returns 0x00 (0000ms, 1122ms total)
T1498 002:526 JLINK_WriteReg(R4, 0x00000000)  returns 0x00 (0000ms, 1122ms total)
T1498 002:526 JLINK_WriteReg(R5, 0x00000000)  returns 0x00 (0000ms, 1122ms total)
T1498 002:526 JLINK_WriteReg(R6, 0x00000000)  returns 0x00 (0000ms, 1122ms total)
T1498 002:526 JLINK_WriteReg(R7, 0x00000000)  returns 0x00 (0000ms, 1122ms total)
T1498 002:526 JLINK_WriteReg(R8, 0x00000000)  returns 0x00 (0000ms, 1122ms total)
T1498 002:526 JLINK_WriteReg(R9, 0x20000160)  returns 0x00 (0000ms, 1122ms total)
T1498 002:526 JLINK_WriteReg(R10, 0x00000000)  returns 0x00 (0000ms, 1122ms total)
T1498 002:526 JLINK_WriteReg(R11, 0x00000000)  returns 0x00 (0000ms, 1122ms total)
T1498 002:526 JLINK_WriteReg(R12, 0x00000000)  returns 0x00 (0000ms, 1122ms total)
T1498 002:526 JLINK_WriteReg(R13, 0x20001000)  returns 0x00 (0000ms, 1122ms total)
T1498 002:526 JLINK_WriteReg(R14, 0x20000001)  returns 0x00 (0000ms, 1122ms total)
T1498 002:526 JLINK_WriteReg(R15, 0x200000B6)  returns 0x00 (0000ms, 1122ms total)
T1498 002:526 JLINK_WriteReg(XPSR, 0x01000000)  returns 0x00 (0000ms, 1122ms total)
T1498 002:526 JLINK_WriteReg(MSP, 0x20001000)  returns 0x00 (0000ms, 1122ms total)
T1498 002:526 JLINK_WriteReg(PSP, 0x20001000)  returns 0x00 (0000ms, 1122ms total)
T1498 002:526 JLINK_WriteReg(CFBP, 0x00000000)  returns 0x00 (0000ms, 1122ms total)
T1498 002:526 JLINK_SetBPEx(Addr = 0x20000000, Type = 0xFFFFFFF2)  returns 0x00000009 (0000ms, 1122ms total)
T1498 002:526 JLINK_Go() -- CPU_WriteMem(4 bytes @ 0xE0002008) -- CPU_WriteMem(4 bytes @ 0xE000200C) -- CPU_WriteMem(4 bytes @ 0xE0002010) -- CPU_WriteMem(4 bytes @ 0xE0002014) -- CPU_WriteMem(4 bytes @ 0xE0002018) -- CPU_WriteMem(4 bytes @ 0xE000201C) (0009ms, 1122ms total)
T1498 002:535 JLINK_IsHalted()  returns FALSE (0001ms, 1131ms total)
T1498 002:537 JLINK_IsHalted()  returns FALSE (0001ms, 1131ms total)
T1498 002:539 JLINK_IsHalted()  returns FALSE (0001ms, 1131ms total)
T1498 002:541 JLINK_IsHalted()  returns FALSE (0001ms, 1131ms total)
T1498 002:543 JLINK_IsHalted()  returns FALSE (0001ms, 1131ms total)
T1498 002:545 JLINK_IsHalted()  returns FALSE (0001ms, 1131ms total)
T1498 002:547 JLINK_IsHalted()  returns FALSE (0001ms, 1131ms total)
T1498 002:549 JLINK_IsHalted()  returns FALSE (0001ms, 1131ms total)
T1498 002:553 JLINK_IsHalted()  returns FALSE (0001ms, 1131ms total)
T1498 002:555 JLINK_IsHalted()  returns FALSE (0001ms, 1131ms total)
T1498 002:557 JLINK_IsHalted() -- CPU_ReadMem(2 bytes @ 0x20000000)  returns TRUE (0004ms, 1131ms total)
T1498 002:561 JLINK_ReadReg(R15)  returns 0x20000000 (0000ms, 1131ms total)
T1498 002:561 JLINK_ClrBPEx(BPHandle = 0x00000009)  returns 0x00 (0000ms, 1131ms total)
T1498 002:561 JLINK_ReadReg(R0)  returns 0x00000000 (0000ms, 1131ms total)
T1498 002:562 JLINK_WriteReg(R0, 0x08001000)  returns 0x00 (0000ms, 1131ms total)
T1498 002:562 JLINK_WriteReg(R1, 0x00000400)  returns 0x00 (0000ms, 1131ms total)
T1498 002:562 JLINK_WriteReg(R2, 0x000000FF)  returns 0x00 (0000ms, 1131ms total)
T1498 002:562 JLINK_WriteReg(R3, 0x00000000)  returns 0x00 (0000ms, 1131ms total)
T1498 002:562 JLINK_WriteReg(R4, 0x00000000)  returns 0x00 (0000ms, 1131ms total)
T1498 002:562 JLINK_WriteReg(R5, 0x00000000)  returns 0x00 (0000ms, 1131ms total)
T1498 002:562 JLINK_WriteReg(R6, 0x00000000)  returns 0x00 (0000ms, 1131ms total)
T1498 002:562 JLINK_WriteReg(R7, 0x00000000)  returns 0x00 (0000ms, 1131ms total)
T1498 002:562 JLINK_WriteReg(R8, 0x00000000)  returns 0x00 (0000ms, 1131ms total)
T1498 002:562 JLINK_WriteReg(R9, 0x20000160)  returns 0x00 (0000ms, 1131ms total)
T1498 002:562 JLINK_WriteReg(R10, 0x00000000)  returns 0x00 (0000ms, 1131ms total)
T1498 002:562 JLINK_WriteReg(R11, 0x00000000)  returns 0x00 (0000ms, 1131ms total)
T1498 002:562 JLINK_WriteReg(R12, 0x00000000)  returns 0x00 (0000ms, 1131ms total)
T1498 002:562 JLINK_WriteReg(R13, 0x20001000)  returns 0x00 (0000ms, 1131ms total)
T1498 002:562 JLINK_WriteReg(R14, 0x20000001)  returns 0x00 (0000ms, 1131ms total)
T1498 002:562 JLINK_WriteReg(R15, 0x20000020)  returns 0x00 (0000ms, 1131ms total)
T1498 002:562 JLINK_WriteReg(XPSR, 0x01000000)  returns 0x00 (0000ms, 1131ms total)
T1498 002:562 JLINK_WriteReg(MSP, 0x20001000)  returns 0x00 (0000ms, 1131ms total)
T1498 002:562 JLINK_WriteReg(PSP, 0x20001000)  returns 0x00 (0000ms, 1131ms total)
T1498 002:562 JLINK_WriteReg(CFBP, 0x00000000)  returns 0x00 (0000ms, 1131ms total)
T1498 002:562 JLINK_SetBPEx(Addr = 0x20000000, Type = 0xFFFFFFF2)  returns 0x0000000A (0000ms, 1131ms total)
T1498 002:562 JLINK_Go() -- CPU_WriteMem(4 bytes @ 0xE0002008) -- CPU_WriteMem(4 bytes @ 0xE000200C) -- CPU_WriteMem(4 bytes @ 0xE0002010) -- CPU_WriteMem(4 bytes @ 0xE0002014) -- CPU_WriteMem(4 bytes @ 0xE0002018) -- CPU_WriteMem(4 bytes @ 0xE000201C) (0009ms, 1131ms total)
T1498 002:571 JLINK_IsHalted() -- CPU_ReadMem(2 bytes @ 0x20000000)  returns TRUE (0004ms, 1140ms total)
T1498 002:575 JLINK_ReadReg(R15)  returns 0x20000000 (0000ms, 1140ms total)
T1498 002:575 JLINK_ClrBPEx(BPHandle = 0x0000000A)  returns 0x00 (0000ms, 1140ms total)
T1498 002:575 JLINK_ReadReg(R0)  returns 0x00000001 (0000ms, 1140ms total)
T1498 002:575 JLINK_WriteReg(R0, 0x08001000)  returns 0x00 (0000ms, 1140ms total)
T1498 002:575 JLINK_WriteReg(R1, 0x00000400)  returns 0x00 (0000ms, 1140ms total)
T1498 002:575 JLINK_WriteReg(R2, 0x000000FF)  returns 0x00 (0000ms, 1140ms total)
T1498 002:575 JLINK_WriteReg(R3, 0x00000000)  returns 0x00 (0000ms, 1140ms total)
T1498 002:575 JLINK_WriteReg(R4, 0x00000000)  returns 0x00 (0000ms, 1140ms total)
T1498 002:575 JLINK_WriteReg(R5, 0x00000000)  returns 0x00 (0000ms, 1140ms total)
T1498 002:575 JLINK_WriteReg(R6, 0x00000000)  returns 0x00 (0000ms, 1140ms total)
T1498 002:575 JLINK_WriteReg(R7, 0x00000000)  returns 0x00 (0000ms, 1140ms total)
T1498 002:575 JLINK_WriteReg(R8, 0x00000000)  returns 0x00 (0000ms, 1140ms total)
T1498 002:575 JLINK_WriteReg(R9, 0x20000160)  returns 0x00 (0000ms, 1140ms total)
T1498 002:575 JLINK_WriteReg(R10, 0x00000000)  returns 0x00 (0000ms, 1140ms total)
T1498 002:575 JLINK_WriteReg(R11, 0x00000000)  returns 0x00 (0000ms, 1140ms total)
T1498 002:575 JLINK_WriteReg(R12, 0x00000000)  returns 0x00 (0000ms, 1140ms total)
T1498 002:575 JLINK_WriteReg(R13, 0x20001000)  returns 0x00 (0000ms, 1140ms total)
T1498 002:575 JLINK_WriteReg(R14, 0x20000001)  returns 0x00 (0000ms, 1140ms total)
T1498 002:575 JLINK_WriteReg(R15, 0x200000B6)  returns 0x00 (0000ms, 1140ms total)
T1498 002:575 JLINK_WriteReg(XPSR, 0x01000000)  returns 0x00 (0000ms, 1140ms total)
T1498 002:575 JLINK_WriteReg(MSP, 0x20001000)  returns 0x00 (0000ms, 1140ms total)
T1498 002:575 JLINK_WriteReg(PSP, 0x20001000)  returns 0x00 (0001ms, 1140ms total)
T1498 002:576 JLINK_WriteReg(CFBP, 0x00000000)  returns 0x00 (0000ms, 1141ms total)
T1498 002:576 JLINK_SetBPEx(Addr = 0x20000000, Type = 0xFFFFFFF2)  returns 0x0000000B (0000ms, 1141ms total)
T1498 002:576 JLINK_Go() -- CPU_WriteMem(4 bytes @ 0xE0002008) -- CPU_WriteMem(4 bytes @ 0xE000200C) -- CPU_WriteMem(4 bytes @ 0xE0002010) -- CPU_WriteMem(4 bytes @ 0xE0002014) -- CPU_WriteMem(4 bytes @ 0xE0002018) -- CPU_WriteMem(4 bytes @ 0xE000201C) (0009ms, 1141ms total)
T1498 002:585 JLINK_IsHalted()  returns FALSE (0001ms, 1150ms total)
T1498 002:589 JLINK_IsHalted()  returns FALSE (0001ms, 1150ms total)
T1498 002:591 JLINK_IsHalted()  returns FALSE (0001ms, 1150ms total)
T1498 002:593 JLINK_IsHalted()  returns FALSE (0001ms, 1150ms total)
T1498 002:595 JLINK_IsHalted()  returns FALSE (0001ms, 1150ms total)
T1498 002:597 JLINK_IsHalted()  returns FALSE (0001ms, 1150ms total)
T1498 002:599 JLINK_IsHalted()  returns FALSE (0001ms, 1150ms total)
T1498 002:601 JLINK_IsHalted()  returns FALSE (0001ms, 1150ms total)
T1498 002:603 JLINK_IsHalted()  returns FALSE (0001ms, 1150ms total)
T1498 002:605 JLINK_IsHalted()  returns FALSE (0001ms, 1150ms total)
T1498 002:607 JLINK_IsHalted() -- CPU_ReadMem(2 bytes @ 0x20000000)  returns TRUE (0005ms, 1150ms total)
T1498 002:612 JLINK_ReadReg(R15)  returns 0x20000000 (0000ms, 1150ms total)
T1498 002:612 JLINK_ClrBPEx(BPHandle = 0x0000000B)  returns 0x00 (0000ms, 1150ms total)
T1498 002:612 JLINK_ReadReg(R0)  returns 0x00000000 (0000ms, 1150ms total)
T1498 002:612 JLINK_WriteReg(R0, 0x08001400)  returns 0x00 (0000ms, 1150ms total)
T1498 002:612 JLINK_WriteReg(R1, 0x00000400)  returns 0x00 (0000ms, 1150ms total)
T1498 002:612 JLINK_WriteReg(R2, 0x000000FF)  returns 0x00 (0000ms, 1150ms total)
T1498 002:612 JLINK_WriteReg(R3, 0x00000000)  returns 0x00 (0000ms, 1150ms total)
T1498 002:612 JLINK_WriteReg(R4, 0x00000000)  returns 0x00 (0000ms, 1150ms total)
T1498 002:612 JLINK_WriteReg(R5, 0x00000000)  returns 0x00 (0000ms, 1150ms total)
T1498 002:612 JLINK_WriteReg(R6, 0x00000000)  returns 0x00 (0000ms, 1150ms total)
T1498 002:612 JLINK_WriteReg(R7, 0x00000000)  returns 0x00 (0000ms, 1150ms total)
T1498 002:612 JLINK_WriteReg(R8, 0x00000000)  returns 0x00 (0000ms, 1150ms total)
T1498 002:612 JLINK_WriteReg(R9, 0x20000160)  returns 0x00 (0001ms, 1150ms total)
T1498 002:613 JLINK_WriteReg(R10, 0x00000000)  returns 0x00 (0000ms, 1151ms total)
T1498 002:613 JLINK_WriteReg(R11, 0x00000000)  returns 0x00 (0000ms, 1151ms total)
T1498 002:613 JLINK_WriteReg(R12, 0x00000000)  returns 0x00 (0000ms, 1151ms total)
T1498 002:613 JLINK_WriteReg(R13, 0x20001000)  returns 0x00 (0000ms, 1151ms total)
T1498 002:613 JLINK_WriteReg(R14, 0x20000001)  returns 0x00 (0000ms, 1151ms total)
T1498 002:613 JLINK_WriteReg(R15, 0x20000020)  returns 0x00 (0000ms, 1151ms total)
T1498 002:613 JLINK_WriteReg(XPSR, 0x01000000)  returns 0x00 (0000ms, 1151ms total)
T1498 002:613 JLINK_WriteReg(MSP, 0x20001000)  returns 0x00 (0000ms, 1151ms total)
T1498 002:613 JLINK_WriteReg(PSP, 0x20001000)  returns 0x00 (0000ms, 1151ms total)
T1498 002:613 JLINK_WriteReg(CFBP, 0x00000000)  returns 0x00 (0000ms, 1151ms total)
T1498 002:613 JLINK_SetBPEx(Addr = 0x20000000, Type = 0xFFFFFFF2)  returns 0x0000000C (0000ms, 1151ms total)
T1498 002:613 JLINK_Go() -- CPU_WriteMem(4 bytes @ 0xE0002008) -- CPU_WriteMem(4 bytes @ 0xE000200C) -- CPU_WriteMem(4 bytes @ 0xE0002010) -- CPU_WriteMem(4 bytes @ 0xE0002014) -- CPU_WriteMem(4 bytes @ 0xE0002018) -- CPU_WriteMem(4 bytes @ 0xE000201C) (0008ms, 1151ms total)
T1498 002:621 JLINK_IsHalted() -- CPU_ReadMem(2 bytes @ 0x20000000)  returns TRUE (0005ms, 1159ms total)
T1498 002:626 JLINK_ReadReg(R15)  returns 0x20000000 (0000ms, 1159ms total)
T1498 002:626 JLINK_ClrBPEx(BPHandle = 0x0000000C)  returns 0x00 (0000ms, 1159ms total)
T1498 002:626 JLINK_ReadReg(R0)  returns 0x00000001 (0000ms, 1159ms total)
T1498 002:626 JLINK_WriteReg(R0, 0x08001400)  returns 0x00 (0000ms, 1159ms total)
T1498 002:626 JLINK_WriteReg(R1, 0x00000400)  returns 0x00 (0000ms, 1159ms total)
T1498 002:626 JLINK_WriteReg(R2, 0x000000FF)  returns 0x00 (0000ms, 1159ms total)
T1498 002:626 JLINK_WriteReg(R3, 0x00000000)  returns 0x00 (0000ms, 1159ms total)
T1498 002:626 JLINK_WriteReg(R4, 0x00000000)  returns 0x00 (0000ms, 1159ms total)
T1498 002:626 JLINK_WriteReg(R5, 0x00000000)  returns 0x00 (0000ms, 1159ms total)
T1498 002:626 JLINK_WriteReg(R6, 0x00000000)  returns 0x00 (0000ms, 1159ms total)
T1498 002:626 JLINK_WriteReg(R7, 0x00000000)  returns 0x00 (0000ms, 1159ms total)
T1498 002:626 JLINK_WriteReg(R8, 0x00000000)  returns 0x00 (0000ms, 1159ms total)
T1498 002:626 JLINK_WriteReg(R9, 0x20000160)  returns 0x00 (0000ms, 1159ms total)
T1498 002:626 JLINK_WriteReg(R10, 0x00000000)  returns 0x00 (0000ms, 1159ms total)
T1498 002:626 JLINK_WriteReg(R11, 0x00000000)  returns 0x00 (0000ms, 1159ms total)
T1498 002:626 JLINK_WriteReg(R12, 0x00000000)  returns 0x00 (0000ms, 1159ms total)
T1498 002:626 JLINK_WriteReg(R13, 0x20001000)  returns 0x00 (0000ms, 1159ms total)
T1498 002:626 JLINK_WriteReg(R14, 0x20000001)  returns 0x00 (0000ms, 1159ms total)
T1498 002:626 JLINK_WriteReg(R15, 0x200000B6)  returns 0x00 (0000ms, 1159ms total)
T1498 002:626 JLINK_WriteReg(XPSR, 0x01000000)  returns 0x00 (0000ms, 1159ms total)
T1498 002:626 JLINK_WriteReg(MSP, 0x20001000)  returns 0x00 (0000ms, 1159ms total)
T1498 002:626 JLINK_WriteReg(PSP, 0x20001000)  returns 0x00 (0000ms, 1159ms total)
T1498 002:626 JLINK_WriteReg(CFBP, 0x00000000)  returns 0x00 (0000ms, 1159ms total)
T1498 002:626 JLINK_SetBPEx(Addr = 0x20000000, Type = 0xFFFFFFF2)  returns 0x0000000D (0000ms, 1159ms total)
T1498 002:626 JLINK_Go() -- CPU_WriteMem(4 bytes @ 0xE0002008) -- CPU_WriteMem(4 bytes @ 0xE000200C) -- CPU_WriteMem(4 bytes @ 0xE0002010) -- CPU_WriteMem(4 bytes @ 0xE0002014) -- CPU_WriteMem(4 bytes @ 0xE0002018) -- CPU_WriteMem(4 bytes @ 0xE000201C) (0011ms, 1159ms total)
T1498 002:637 JLINK_IsHalted()  returns FALSE (0001ms, 1170ms total)
T1498 002:639 JLINK_IsHalted()  returns FALSE (0001ms, 1170ms total)
T1498 002:641 JLINK_IsHalted()  returns FALSE (0001ms, 1170ms total)
T1498 002:643 JLINK_IsHalted()  returns FALSE (0001ms, 1170ms total)
T1498 002:648 JLINK_IsHalted()  returns FALSE (0001ms, 1170ms total)
T1498 002:650 JLINK_IsHalted()  returns FALSE (0001ms, 1170ms total)
T1498 002:652 JLINK_IsHalted()  returns FALSE (0001ms, 1170ms total)
T1498 002:654 JLINK_IsHalted()  returns FALSE (0001ms, 1170ms total)
T1498 002:656 JLINK_IsHalted()  returns FALSE (0001ms, 1170ms total)
T1498 002:658 JLINK_IsHalted()  returns FALSE (0001ms, 1170ms total)
T1498 002:660 JLINK_IsHalted() -- CPU_ReadMem(2 bytes @ 0x20000000)  returns TRUE (0005ms, 1170ms total)
T1498 002:665 JLINK_ReadReg(R15)  returns 0x20000000 (0000ms, 1170ms total)
T1498 002:665 JLINK_ClrBPEx(BPHandle = 0x0000000D)  returns 0x00 (0000ms, 1170ms total)
T1498 002:665 JLINK_ReadReg(R0)  returns 0x00000000 (0000ms, 1170ms total)
T1498 002:665 JLINK_WriteReg(R0, 0x08001800)  returns 0x00 (0000ms, 1170ms total)
T1498 002:665 JLINK_WriteReg(R1, 0x00000400)  returns 0x00 (0000ms, 1170ms total)
T1498 002:665 JLINK_WriteReg(R2, 0x000000FF)  returns 0x00 (0000ms, 1170ms total)
T1498 002:665 JLINK_WriteReg(R3, 0x00000000)  returns 0x00 (0000ms, 1170ms total)
T1498 002:665 JLINK_WriteReg(R4, 0x00000000)  returns 0x00 (0000ms, 1170ms total)
T1498 002:665 JLINK_WriteReg(R5, 0x00000000)  returns 0x00 (0000ms, 1170ms total)
T1498 002:665 JLINK_WriteReg(R6, 0x00000000)  returns 0x00 (0000ms, 1170ms total)
T1498 002:665 JLINK_WriteReg(R7, 0x00000000)  returns 0x00 (0000ms, 1170ms total)
T1498 002:665 JLINK_WriteReg(R8, 0x00000000)  returns 0x00 (0000ms, 1170ms total)
T1498 002:665 JLINK_WriteReg(R9, 0x20000160)  returns 0x00 (0000ms, 1170ms total)
T1498 002:665 JLINK_WriteReg(R10, 0x00000000)  returns 0x00 (0000ms, 1170ms total)
T1498 002:665 JLINK_WriteReg(R11, 0x00000000)  returns 0x00 (0001ms, 1170ms total)
T1498 002:666 JLINK_WriteReg(R12, 0x00000000)  returns 0x00 (0000ms, 1171ms total)
T1498 002:666 JLINK_WriteReg(R13, 0x20001000)  returns 0x00 (0000ms, 1171ms total)
T1498 002:666 JLINK_WriteReg(R14, 0x20000001)  returns 0x00 (0000ms, 1171ms total)
T1498 002:666 JLINK_WriteReg(R15, 0x20000020)  returns 0x00 (0000ms, 1171ms total)
T1498 002:666 JLINK_WriteReg(XPSR, 0x01000000)  returns 0x00 (0000ms, 1171ms total)
T1498 002:666 JLINK_WriteReg(MSP, 0x20001000)  returns 0x00 (0000ms, 1171ms total)
T1498 002:666 JLINK_WriteReg(PSP, 0x20001000)  returns 0x00 (0000ms, 1171ms total)
T1498 002:666 JLINK_WriteReg(CFBP, 0x00000000)  returns 0x00 (0000ms, 1171ms total)
T1498 002:666 JLINK_SetBPEx(Addr = 0x20000000, Type = 0xFFFFFFF2)  returns 0x0000000E (0000ms, 1171ms total)
T1498 002:666 JLINK_Go() -- CPU_WriteMem(4 bytes @ 0xE0002008) -- CPU_WriteMem(4 bytes @ 0xE000200C) -- CPU_WriteMem(4 bytes @ 0xE0002010) -- CPU_WriteMem(4 bytes @ 0xE0002014) -- CPU_WriteMem(4 bytes @ 0xE0002018) -- CPU_WriteMem(4 bytes @ 0xE000201C) (0008ms, 1171ms total)
T1498 002:674 JLINK_IsHalted() -- CPU_ReadMem(2 bytes @ 0x20000000)  returns TRUE (0004ms, 1179ms total)
T1498 002:678 JLINK_ReadReg(R15)  returns 0x20000000 (0000ms, 1179ms total)
T1498 002:678 JLINK_ClrBPEx(BPHandle = 0x0000000E)  returns 0x00 (0000ms, 1179ms total)
T1498 002:678 JLINK_ReadReg(R0)  returns 0x00000001 (0000ms, 1179ms total)
T1498 002:678 JLINK_WriteReg(R0, 0x08001800)  returns 0x00 (0001ms, 1179ms total)
T1498 002:679 JLINK_WriteReg(R1, 0x00000400)  returns 0x00 (0000ms, 1180ms total)
T1498 002:679 JLINK_WriteReg(R2, 0x000000FF)  returns 0x00 (0000ms, 1180ms total)
T1498 002:679 JLINK_WriteReg(R3, 0x00000000)  returns 0x00 (0000ms, 1180ms total)
T1498 002:679 JLINK_WriteReg(R4, 0x00000000)  returns 0x00 (0000ms, 1180ms total)
T1498 002:679 JLINK_WriteReg(R5, 0x00000000)  returns 0x00 (0000ms, 1180ms total)
T1498 002:679 JLINK_WriteReg(R6, 0x00000000)  returns 0x00 (0000ms, 1180ms total)
T1498 002:679 JLINK_WriteReg(R7, 0x00000000)  returns 0x00 (0000ms, 1180ms total)
T1498 002:679 JLINK_WriteReg(R8, 0x00000000)  returns 0x00 (0000ms, 1180ms total)
T1498 002:679 JLINK_WriteReg(R9, 0x20000160)  returns 0x00 (0000ms, 1180ms total)
T1498 002:679 JLINK_WriteReg(R10, 0x00000000)  returns 0x00 (0000ms, 1180ms total)
T1498 002:679 JLINK_WriteReg(R11, 0x00000000)  returns 0x00 (0000ms, 1180ms total)
T1498 002:679 JLINK_WriteReg(R12, 0x00000000)  returns 0x00 (0000ms, 1180ms total)
T1498 002:679 JLINK_WriteReg(R13, 0x20001000)  returns 0x00 (0000ms, 1180ms total)
T1498 002:679 JLINK_WriteReg(R14, 0x20000001)  returns 0x00 (0000ms, 1180ms total)
T1498 002:679 JLINK_WriteReg(R15, 0x200000B6)  returns 0x00 (0000ms, 1180ms total)
T1498 002:679 JLINK_WriteReg(XPSR, 0x01000000)  returns 0x00 (0000ms, 1180ms total)
T1498 002:679 JLINK_WriteReg(MSP, 0x20001000)  returns 0x00 (0000ms, 1180ms total)
T1498 002:679 JLINK_WriteReg(PSP, 0x20001000)  returns 0x00 (0000ms, 1180ms total)
T1498 002:679 JLINK_WriteReg(CFBP, 0x00000000)  returns 0x00 (0000ms, 1180ms total)
T1498 002:679 JLINK_SetBPEx(Addr = 0x20000000, Type = 0xFFFFFFF2)  returns 0x0000000F (0000ms, 1180ms total)
T1498 002:679 JLINK_Go() -- CPU_WriteMem(4 bytes @ 0xE0002008) -- CPU_WriteMem(4 bytes @ 0xE000200C) -- CPU_WriteMem(4 bytes @ 0xE0002010) -- CPU_WriteMem(4 bytes @ 0xE0002014) -- CPU_WriteMem(4 bytes @ 0xE0002018) -- CPU_WriteMem(4 bytes @ 0xE000201C) (0007ms, 1180ms total)
T1498 002:686 JLINK_IsHalted()  returns FALSE (0001ms, 1187ms total)
T1498 002:696 JLINK_IsHalted()  returns FALSE (0001ms, 1187ms total)
T1498 002:698 JLINK_IsHalted()  returns FALSE (0001ms, 1187ms total)
T1498 002:700 JLINK_IsHalted()  returns FALSE (0001ms, 1187ms total)
T1498 002:702 JLINK_IsHalted()  returns FALSE (0001ms, 1187ms total)
T1498 002:704 JLINK_IsHalted()  returns FALSE (0001ms, 1187ms total)
T1498 002:706 JLINK_IsHalted()  returns FALSE (0001ms, 1187ms total)
T1498 002:708 JLINK_IsHalted() -- CPU_ReadMem(2 bytes @ 0x20000000)  returns TRUE (0005ms, 1187ms total)
T1498 002:713 JLINK_ReadReg(R15)  returns 0x20000000 (0000ms, 1187ms total)
